
**** 06/14/23 23:57:53 ***** PSpice 16.6.0 (October 2012) ***** ID# 0 ********

 ** Profile: "VCO-VCO"  [ C:\Users\Aryana\Documents\Orcad\Project\NE560\ne560_pll-pspicefiles\vco\vco.sim ] 


 ****     CIRCUIT DESCRIPTION


******************************************************************************




** Creating circuit file "VCO.cir" 
** WARNING: THIS AUTOMATICALLY GENERATED FILE MAY BE OVERWRITTEN BY SUBSEQUENT SIMULATIONS

*Libraries: 
* Profile Libraries :
* Local Libraries :
* From [PSPICE NETLIST] section of C:\Users\Aryana\AppData\Roaming\SPB_Data\cdssetup\OrCAD_PSpice/16.6.0/PSpice.ini file:
.lib "nom.lib" 

*Analysis directives: 
.TRAN  0 50u 0 
.OPTIONS ADVCONV
.PROBE64 V(alias(*)) I(alias(*)) W(alias(*)) D(alias(*)) NOISE(alias(*)) 
.INC "..\VCO.net" 



**** INCLUDING VCO.net ****
* source NE560_PLL
I_I6         N05191 0 DC 500u  
Q_Q10         N05269 +PD_OUT N05151 BC107BP/ZTX 
I_I2         N04458 0 DC 500u  
C_C1         N04462 N04458  200p  TC=0,0 
Q_Q5         VCC N04490 +VCO_OUT BC107BP/ZTX 
I_I3         +VCO_OUT 0 DC 500u  
I_I5         N04462 0 DC 0Adc AC 0Aac
+PULSE 0 2m 0 0.1n 0.1n 1n 10s
R_R3         N05139 N05191  325 TC=0,0 
R_R4         N05191 N05151  325 TC=0,0 
D_D1         N04520 +13V D1N4735 
Q_Q1         N04520 N04520 N04490 BC107BP/ZTX 
Q_Q3         N04490 -VCO_OUT N04458 BC107BP/ZTX 
Q_Q11         VCC N05269 OUTPUT BC107BP/ZTX 
Q_Q9         N05269 +PD_OUT N05151 BC107BP/ZTX 
R_R1         N04486 N04520  2k TC=0,0 
I_I4         -VCO_OUT 0 DC 500u  
R_R5         VCC N05269  8k TC=0,0 
V_Vcc         VCC 0 16
Q_Q6         VCC N04486 -VCO_OUT BC107BP/ZTX 
Q_Q8         N04462 -PD_OUT N05139 BC107BP/ZTX 
R_R6         OUTPUT 0  50k TC=0,0 
R_R2         N04490 N04520  2k TC=0,0 
V_V1         +13V 0 13
I_I1         N04462 0 DC 500u  
Q_Q2         N04520 N04520 N04486 BC107BP/ZTX 
Q_Q7         N04458 -PD_OUT N05139 BC107BP/ZTX 
Q_Q4         N04486 +VCO_OUT N04462 BC107BP/ZTX 
V_V3         3.69V 0 3.69
R_R14         0 -PD_OUT  8.2k TC=0,0 
Q_Q17         N16430 +VCO_OUT N16366 BC107BP/ZTX 
Q_Q13         N16366 -INPUT N16354 BC107BP/ZTX 
R_R13         0 +PD_OUT  8.2k TC=0,0 
Q_Q12         N16378 +INPUT N16354 BC107BP/ZTX 
Q_Q16         N15816 -VCO_OUT N16366 BC107BP/ZTX 
R_R11         -PD_OUT N27494  1.25k TC=0,0 
R_R9         N15816 +13V  6k TC=0,0 
D_D2         N20583 N16426 D1N4735 
Q_Q19         VCC N16430 N16426 BC107BP/ZTX 
Q_Q15         N16430 -VCO_OUT N16378 BC107BP/ZTX 
V_V4         +INPUT -INPUT  AC 0
+SIN 0 50m 1.2meg 0 0 0
I_I7         N16354 0 DC 0.77m  
R_R8         3.69V -INPUT  2k TC=0,0 
R_R12         +PD_OUT N20583  1.25k TC=0,0 
D_D3         N27494 N27401 D1N4735 
Q_Q18         VCC N15816 N27401 BC107BP/ZTX 
R_R10         N16430 +13V  6k TC=0,0 
R_R7         3.69V +INPUT  2k TC=0,0 
Q_Q14         N15816 +VCO_OUT N16378 BC107BP/ZTX 
C_C3         +PD_OUT N28552  10n  TC=0,0 
R_R15         N28572 0  100 TC=0,0 
R_R16         N28552 0  100 TC=0,0 
C_C2         -PD_OUT N28572  10n  TC=0,0 

**** RESUMING VCO.cir ****
.END

**** 06/14/23 23:57:53 ***** PSpice 16.6.0 (October 2012) ***** ID# 0 ********

 ** Profile: "VCO-VCO"  [ C:\Users\Aryana\Documents\Orcad\Project\NE560\ne560_pll-pspicefiles\vco\vco.sim ] 


 ****     Diode MODEL PARAMETERS


******************************************************************************




               D1N4735         
          IS    1.168000E-15 
         ISR    2.613000E-09 
          BV    6.2          
         IBV    4.9984       
         NBV     .32088      
        IBVL  184.780000E-06 
        NBVL     .19558      
          RS     .9756       
         CJO  140.000000E-12 
          VJ     .75         
           M     .3196       
        TBV1  443.550000E-06 


**** 06/14/23 23:57:53 ***** PSpice 16.6.0 (October 2012) ***** ID# 0 ********

 ** Profile: "VCO-VCO"  [ C:\Users\Aryana\Documents\Orcad\Project\NE560\ne560_pll-pspicefiles\vco\vco.sim ] 


 ****     BJT MODEL PARAMETERS


******************************************************************************




               BC107BP/ZTX     
               NPN             
       LEVEL    1            
          IS   18.000000E-15 
          BF  400            
          NF     .9955       
         VAF   80            
         IKF     .14         
         ISE   50.000000E-15 
          NE    1.46         
          BR   35.5          
          NR    1.005        
         VAR   12.5          
         IKR     .03         
         ISC  172.000000E-15 
          NC    1.27         
         ISS    0            
          RB     .56         
          RE     .6          
          RC     .25         
         CJE   13.000000E-12 
         VJE     .75         
         CJC    4.000000E-12 
         VJC     .54         
         MJC     .33         
        XCJC    1            
         CJS    0            
         VJS     .75         
          TF  640.000000E-12 
          TR   50.720000E-09 
          KF    0            
          AF    1            
          CN    2.42         
           D     .87         


**** 06/14/23 23:57:53 ***** PSpice 16.6.0 (October 2012) ***** ID# 0 ********

 ** Profile: "VCO-VCO"  [ C:\Users\Aryana\Documents\Orcad\Project\NE560\ne560_pll-pspicefiles\vco\vco.sim ] 


 ****     INITIAL TRANSIENT SOLUTION       TEMPERATURE =   27.000 DEG C


******************************************************************************



 NODE   VOLTAGE     NODE   VOLTAGE     NODE   VOLTAGE     NODE   VOLTAGE


(  VCC)   16.0000  ( +13V)   13.0000  (3.69V)    3.6900  (+INPUT)    3.6869     

(-INPUT)    3.6869 (N04458)    5.0145 (N04462)    5.0145 (N04486)    6.2587     

(N04490)    6.2587 (N04520)    6.8677 (N05139)    2.8532 (N05151)    2.8554     

(N05191)    2.7730 (N05269)   13.9730 (N15816)   10.6990 (N16354)    3.0734     

(N16366)    5.0467 (N16378)    5.0467 (N16426)   10.0850 (N16430)   10.6990     

(N20583)    3.9624 (N27401)   10.0850 (N27494)    3.9624 (N28552)    0.0000     

(N28572)    0.0000 (OUTPUT)   13.3690 (+PD_OUT)    3.4371                       

(-PD_OUT)    3.4370                   (+VCO_OUT)    5.6409                      

(-VCO_OUT)    5.6409                  




    VOLTAGE SOURCE CURRENTS
    NAME         CURRENT

    V_Vcc       -2.361E-03
    V_V1        -2.011E-03
    V_V3        -3.116E-06
    V_V4         0.000E+00

    TOTAL POWER DISSIPATION   6.39E-02  WATTS



          JOB CONCLUDED

**** 06/14/23 23:57:53 ***** PSpice 16.6.0 (October 2012) ***** ID# 0 ********

 ** Profile: "VCO-VCO"  [ C:\Users\Aryana\Documents\Orcad\Project\NE560\ne560_pll-pspicefiles\vco\vco.sim ] 


 ****     JOB STATISTICS SUMMARY


******************************************************************************



  Total job time (using Solver 1)   =         .84
